
T0A5C 000:001 SEGGER J-Link V6.16c Log File (0001ms, 0002ms total)
T0A5C 000:001 DLL Compiled: Jun 16 2017 18:14:49 (0001ms, 0002ms total)
T0A5C 000:001 Logging started @ 2017-10-20 11:34 (0001ms, 0002ms total)
T0A5C 000:002 JLINK_SetWarnOutHandler(...) (0000ms, 0002ms total)
T0A5C 000:002 JLINK_OpenEx(...)
Firmware: J-Link LPCXpresso V2 compiled May 30 2016 16:14:13
Hardware: V1.00
S/N: 723632234WEBSRV Webserver running on local port 19080 (0017ms, 0019ms total)
T0A5C 000:002   returns O.K. (0017ms, 0019ms total)
T0A5C 000:019 JLINK_GetEmuCaps()  returns 0xB9FF7BBF (0000ms, 0019ms total)
T0A5C 000:019 JLINK_TIF_GetAvailable(...) (0001ms, 0020ms total)
T0A5C 000:020 JLINK_SetErrorOutHandler(...) (0000ms, 0020ms total)
T0A5C 000:020 JLINK_ExecCommand("ProjectFile = "C:\Users\Andy\Documents\ESA Projects\FlashMagic\Bootloaders\External Memory\LPCxpresso54608\JLinkSettings.ini"", ...).   returns 0x00 (0144ms, 0164ms total)
T0A5C 000:164 JLINK_ExecCommand("Device = LPC54608J512ET180:M4", ...). Device "LPC54608J512" selected.  returns 0x00 (0017ms, 0181ms total)
T0A5C 000:181 JLINK_ExecCommand("DisableConnectionTimeout", ...).   returns 0x01 (0000ms, 0181ms total)
T0A5C 000:181 JLINK_GetHardwareVersion()  returns 0x2710 (0000ms, 0181ms total)
T0A5C 000:181 JLINK_GetDLLVersion()  returns 61603 (0000ms, 0181ms total)
T0A5C 000:181 JLINK_GetFirmwareString(...) (0000ms, 0181ms total)
T0A5C 000:181 JLINK_GetDLLVersion()  returns 61603 (0000ms, 0181ms total)
T0A5C 000:182 JLINK_GetCompileDateTime() (0000ms, 0182ms total)
T0A5C 000:182 JLINK_GetFirmwareString(...) (0000ms, 0182ms total)
T0A5C 000:182 JLINK_GetHardwareVersion()  returns 0x2710 (0000ms, 0182ms total)
T0A5C 000:182 JLINK_TIF_Select(JLINKARM_TIF_SWD)  returns 0x00 (0002ms, 0184ms total)
T0A5C 000:184 JLINK_SetSpeed(5000) (0001ms, 0185ms total)
T0A5C 000:185 JLINK_GetId() >0x10B TIF>Found SW-DP with ID 0x2BA01477 >0x0D TIF> >0x28 TIF> >0x0D TIF> >0x28 TIF> >0x0D TIF> >0x28 TIF> >0x0D TIF> >0x21 TIF> >0x0D TIF> >0x21 TIF> >0x10B TIF>Found SW-DP with ID 0x2BA01477 >0x0D TIF> >0x28 TIF> >0x0D TIF> >0x28 TIF> >0x0D TIF> >0x28 TIF> >0x0D TIF> >0x28 TIF> >0x0D TIF> >0x21 TIF> >0x0D TIF> >0x28 TIF>Scanning APs, stopping at first AHB-AP found. >0x0D TIF> >0x28 TIF> >0x0D TIF> >0x21 TIF> >0x0D TIF> >0x21 TIF>AP[0] IDR: 0x24770011 (AHB-AP) >0x0D TIF>
 >0x28 TIF> >0x0D TIF> >0x21 TIF> >0x0D TIF> >0x21 TIF>AHB-AP ROM: 0xE00FF000 (Base addr. of first ROM table) >0x0D TIF> >0x28 TIF> >0x0D TIF> >0x28 TIF> >0x0D TIF> >0x28 TIF> >0x0D TIF> >0x21 TIF> >0x0D TIF> >0x21 TIF> >0x0D TIF> >0x28 TIF> >0x0D TIF> >0x21 TIF> >0x0D TIF> >0x21 TIF>CPUID reg: 0x410FC241. Implementer code: 0x41 (ARM)Found Cortex-M4 r0p1, Little endian. -- CPU_ReadMem(4 bytes @ 0xE000EDF0) -- CPU_WriteMem(4 bytes @ 0xE000EDF0) -- CPU_ReadMem(4 bytes @ 0xE0002000)
FPUnit: 6 code (BP) slots and 2 literal slots -- CPU_ReadMem(4 bytes @ 0xE000EDFC) -- CPU_WriteMem(4 bytes @ 0xE000EDFC) -- CPU_ReadMem(4 bytes @ 0xE0001000) -- CPU_WriteMem(4 bytes @ 0xE0001000) -- CPU_ReadMem(4 bytes @ 0xE000ED88) -- CPU_WriteMem(4 bytes @ 0xE000ED88) -- CPU_ReadMem(4 bytes @ 0xE000ED88) -- CPU_WriteMem(4 bytes @ 0xE000ED88)CoreSight components:ROMTbl[0] @ E00FF000 -- CPU_ReadMem(16 bytes @ 0xE00FF000) -- CPU_ReadMem(16 bytes @ 0xE000EFF0) -- CPU_ReadMem(16 bytes @ 0xE000EFE0)
ROMTbl[0][0]: E000E000, CID: B105E00D, PID: 000BB00C SCS -- CPU_ReadMem(16 bytes @ 0xE0001FF0) -- CPU_ReadMem(16 bytes @ 0xE0001FE0)ROMTbl[0][1]: E0001000, CID: B105E00D, PID: 003BB002 DWT -- CPU_ReadMem(16 bytes @ 0xE0002FF0) -- CPU_ReadMem(16 bytes @ 0xE0002FE0)ROMTbl[0][2]: E0002000, CID: B105E00D, PID: 002BB003 FPB -- CPU_ReadMem(16 bytes @ 0xE0000FF0) -- CPU_ReadMem(16 bytes @ 0xE0000FE0)ROMTbl[0][3]: E0000000, CID: B105E00D, PID: 003BB001 ITM -- CPU_ReadMem(16 bytes @ 0xE00FF010)
 -- CPU_ReadMem(16 bytes @ 0xE0040FF0) -- CPU_ReadMem(16 bytes @ 0xE0040FE0)ROMTbl[0][4]: E0040000, CID: B105900D, PID: 000BB9A1 TPIU -- CPU_ReadMem(16 bytes @ 0xE0041FF0) -- CPU_ReadMem(16 bytes @ 0xE0041FE0)ROMTbl[0][5]: E0041000, CID: B105900D, PID: 000BB925 ETM >0x0D TIF> >0x21 TIF>  returns 0x2BA01477 (0049ms, 0234ms total)
T0A5C 000:234 JLINK_GetDLLVersion()  returns 61603 (0000ms, 0234ms total)
T0A5C 000:234 JLINK_CORE_GetFound()  returns 0xE0000FF (0001ms, 0235ms total)
T0A5C 000:235 JLINK_GetDebugInfo(0x100 = JLINKARM_ROM_TABLE_ADDR_INDEX) -- Value=0xE00FF000  returns 0x00 (0000ms, 0235ms total)
T0A5C 000:235 JLINK_GetDebugInfo(0x100 = JLINKARM_ROM_TABLE_ADDR_INDEX) -- Value=0xE00FF000  returns 0x00 (0000ms, 0235ms total)
T0A5C 000:235 JLINK_GetDebugInfo(0x101 = JLINKARM_DEBUG_INFO_ETM_ADDR_INDEX) -- Value=0xE0041000  returns 0x00 (0000ms, 0235ms total)
T0A5C 000:235 JLINK_ReadMemEx(0xE0041FD0, 0x0020 Bytes, ..., Flags = 0x02000004) -- CPU_ReadMem(32 bytes @ 0xE0041FD0) - Data: 04 00 00 00 00 00 00 00 00 00 00 00 00 00 00 00 ...  returns 0x20 (0000ms, 0235ms total)
T0A5C 000:235 JLINK_GetDebugInfo(0x102 = JLINKARM_DEBUG_INFO_MTB_ADDR_INDEX) -- Value=0x00000000  returns 0x00 (0000ms, 0235ms total)
T0A5C 000:235 JLINK_GetDebugInfo(0x103 = JLINKARM_DEBUG_INFO_TPIU_ADDR_INDEX) -- Value=0xE0040000  returns 0x00 (0000ms, 0235ms total)
T0A5C 000:235 JLINK_GetDebugInfo(0x104 = JLINKARM_DEBUG_INFO_ITM_ADDR_INDEX) -- Value=0xE0000000  returns 0x00 (0000ms, 0235ms total)
T0A5C 000:235 JLINK_GetDebugInfo(0x105 = JLINKARM_DEBUG_INFO_DWT_ADDR_INDEX) -- Value=0xE0001000  returns 0x00 (0000ms, 0235ms total)
T0A5C 000:235 JLINK_GetDebugInfo(0x106 = JLINKARM_DEBUG_INFO_FPB_ADDR_INDEX) -- Value=0xE0002000  returns 0x00 (0001ms, 0236ms total)
T0A5C 000:236 JLINK_GetDebugInfo(0x107 = JLINKARM_DEBUG_INFO_NVIC_ADDR_INDEX) -- Value=0xE000E000  returns 0x00 (0000ms, 0236ms total)
T0A5C 000:236 JLINK_GetDebugInfo(0x10C = JLINKARM_DEBUG_INFO_DBG_ADDR_INDEX) -- Value=0xE000EDF0  returns 0x00 (0000ms, 0236ms total)
T0A5C 000:236 JLINK_ReadMemU32(0xE000EF40, 0x0001 Items, ...) -- CPU_ReadMem(4 bytes @ 0xE000EF40) - Data: 21 00 11 10  returns 0x01 (0000ms, 0236ms total)
T0A5C 000:236 JLINK_ReadMemU32(0xE000EF44, 0x0001 Items, ...) -- CPU_ReadMem(4 bytes @ 0xE000EF44) - Data: 11 00 00 11  returns 0x01 (0001ms, 0237ms total)
T0A5C 000:237 JLINK_ReadMemU32(0xE000ED00, 0x0001 Items, ...) -- CPU_ReadMem(4 bytes @ 0xE000ED00) - Data: 41 C2 0F 41  returns 0x01 (0001ms, 0238ms total)
T0A5C 000:238 JLINK_GetDebugInfo(0x10F = JLINKARM_DEBUG_INFO_HAS_CORTEX_M_SECURITY_EXT_INDEX) -- Value=0x00000000  returns 0x00 (0000ms, 0238ms total)
T0A5C 000:238 JLINK_SetResetType(JLINKARM_CM3_RESET_TYPE_NORMAL)  returns JLINKARM_CM3_RESET_TYPE_HALT_AFTER_BTL (0000ms, 0238ms total)
T0A5C 000:238 JLINK_Reset() -- CPU is running -- CPU_WriteMem(4 bytes @ 0xE000EDF0) -- CPU is running -- CPU_WriteMem(4 bytes @ 0xE000EDFC) >0x35 TIF>Setting AIRCR.SYSRESETREQ -- CPU is running -- CPU_WriteMem(4 bytes @ 0xE000ED0C) >0x0D TIF> >0x28 TIF> -- CPU_ReadMem(4 bytes @ 0xE000ED0C) -- CPU_ReadMem(4 bytes @ 0xE000EDF0) -- CPU_ReadMem(4 bytes @ 0xE000EDF0) -- CPU_ReadMem(4 bytes @ 0xE000EDF0) -- CPU is running -- CPU_WriteMem(4 bytes @ 0xE000EDF0) -- CPU is running
 -- CPU_WriteMem(4 bytes @ 0xE000EDFC) -- CPU_ReadMem(4 bytes @ 0xE000EDF0) -- CPU_WriteMem(4 bytes @ 0xE000EDFC) -- CPU_WriteMem(4 bytes @ 0xE000EDFC) -- CPU_WriteMem(4 bytes @ 0xE000EDFC) -- CPU_WriteMem(4 bytes @ 0xE000EDFC) -- CPU_WriteMem(4 bytes @ 0xE000EDFC) -- CPU_WriteMem(4 bytes @ 0xE0001050) -- CPU_WriteMem(4 bytes @ 0xE0001054) -- CPU_WriteMem(4 bytes @ 0xE0001058) -- CPU_ReadMem(4 bytes @ 0xE0001000) -- CPU_WriteMem(4 bytes @ 0xE000EDFC) -- CPU_WriteMem(4 bytes @ 0xE0001058)
 -- CPU_ReadMem(4 bytes @ 0x00000004) -- CPU_ReadMem(4 bytes @ 0xE0002000) -- CPU_ReadMem(4 bytes @ 0xE0002008) -- CPU_ReadMem(4 bytes @ 0xE000200C) -- CPU_ReadMem(4 bytes @ 0xE0002010) -- CPU_ReadMem(4 bytes @ 0xE0002014) -- CPU_ReadMem(4 bytes @ 0xE0002018) -- CPU_ReadMem(4 bytes @ 0xE000201C) -- CPU_WriteMem(4 bytes @ 0xE0002000) -- CPU_WriteMem(4 bytes @ 0xE0002008) -- CPU_WriteMem(4 bytes @ 0xE000200C) -- CPU_WriteMem(4 bytes @ 0xE0002010) -- CPU_WriteMem(4 bytes @ 0xE0002014)
 -- CPU_WriteMem(4 bytes @ 0xE0002018) -- CPU_WriteMem(4 bytes @ 0xE000201C) -- CPU_ReadMem(4 bytes @ 0xE0001000) -- CPU_WriteMem(4 bytes @ 0xE0002000) -- CPU_WriteMem(4 bytes @ 0xE0002008) -- CPU_WriteMem(4 bytes @ 0xE000200C) -- CPU_WriteMem(4 bytes @ 0xE0002010) -- CPU_WriteMem(4 bytes @ 0xE0002014) -- CPU_WriteMem(4 bytes @ 0xE0002018) -- CPU_WriteMem(4 bytes @ 0xE000201C) -- CPU_WriteMem(4 bytes @ 0xE0002000) -- CPU_ReadMem(4 bytes @ 0xE000EDFC) -- CPU_ReadMem(4 bytes @ 0xE0001000)
 (0297ms, 0535ms total)
T0A5C 000:535 JLINK_ReadReg(R15 (PC))  returns 0x000279E8 (0000ms, 0535ms total)
T0A5C 000:536 JLINK_ReadReg(XPSR)  returns 0xA1000000 (0000ms, 0535ms total)
T0A5C 000:536 JLINK_Halt()  returns 0x00 (0000ms, 0535ms total)
T0A5C 000:536 JLINK_ReadMemU32(0xE000EDF0, 0x0001 Items, ...) -- CPU_ReadMem(4 bytes @ 0xE000EDF0) - Data: 03 00 03 00  returns 0x01 (0000ms, 0535ms total)
T0A5C 000:536 JLINK_WriteU32(0xE000EDF0, 0xA05F0003) -- CPU_WriteMem(4 bytes @ 0xE000EDF0)  returns 0x00 (0001ms, 0536ms total)
T0A5C 000:537 JLINK_WriteU32(0xE000EDFC, 0x01000000) -- CPU_WriteMem(4 bytes @ 0xE000EDFC)  returns 0x00 (0001ms, 0537ms total)
T0A5C 000:538 JLINK_GetHWStatus(...)  returns 0x00 (0000ms, 0537ms total)
T0A5C 000:538 JLINK_GetNumBPUnits(Type = 0xFFFFFF00)  returns 0x06 (0000ms, 0537ms total)
T0A5C 000:538 JLINK_GetNumBPUnits(Type = 0xF0)  returns 0x2000 (0000ms, 0537ms total)
T0A5C 000:538 JLINK_GetNumWPUnits()  returns 0x04 (0000ms, 0537ms total)
T0A5C 000:538 JLINK_GetSpeed()  returns 0xFA0 (0000ms, 0537ms total)
T0A5C 000:538 JLINK_ReadMemU32(0xE000E004, 0x0001 Items, ...) -- CPU_ReadMem(4 bytes @ 0xE000E004) - Data: 01 00 00 00  returns 0x01 (0001ms, 0538ms total)
T0A5C 000:539 JLINK_ReadMemU32(0xE000E004, 0x0001 Items, ...) -- CPU_ReadMem(4 bytes @ 0xE000E004) - Data: 01 00 00 00  returns 0x01 (0001ms, 0539ms total)
T0A5C 000:540 JLINK_WriteMemEx(0xE0001000, 0x001C Bytes, ..., Flags = 0x02000004) - Data: 01 00 00 00 00 00 00 00 00 00 00 00 00 00 00 00 ... -- CPU_WriteMem(28 bytes @ 0xE0001000)  returns 0x1C (0001ms, 0540ms total)
T0A5C 000:541 JLINK_ReadReg(R15 (PC))  returns 0x000279E8 (0000ms, 0540ms total)
T0A5C 000:541 JLINK_ReadReg(XPSR)  returns 0xA1000000 (0000ms, 0540ms total)
T0A5C 002:332 JLINK_ReadMemEx(0x0000000C, 0x003C Bytes, ..., Flags = 0x02000000) -- CPU_ReadMem(4 bytes @ 0x40000000) -- CPU_ReadMem(128 bytes @ 0x00000000) -- Updating C cache (128 bytes @ 0x00000000) -- Read from C cache (60 bytes @ 0x0000000C) - Data: 27 3B 01 00 FF 6D 01 00 FB 7F 01 00 AB 84 01 00 ...  returns 0x3C (0002ms, 0542ms total)
T0A5C 002:800 JLINK_ReadReg(R0)  returns 0x00000000 (0001ms, 0543ms total)
T0A5C 002:801 JLINK_ReadReg(R1)  returns 0x000279E9 (0000ms, 0543ms total)
T0A5C 002:801 JLINK_ReadReg(R2)  returns 0xFFFFFFFF (0000ms, 0543ms total)
T0A5C 002:801 JLINK_ReadReg(R3)  returns 0x00000000 (0000ms, 0543ms total)
T0A5C 002:801 JLINK_ReadReg(R4)  returns 0x40000000 (0000ms, 0543ms total)
T0A5C 002:801 JLINK_ReadReg(R5)  returns 0x00000000 (0000ms, 0543ms total)
T0A5C 002:801 JLINK_ReadReg(R6)  returns 0x00000002 (0000ms, 0543ms total)
T0A5C 002:801 JLINK_ReadReg(R7)  returns 0x12345678 (0000ms, 0543ms total)
T0A5C 002:801 JLINK_ReadReg(R8)  returns 0x00000000 (0000ms, 0543ms total)
T0A5C 002:801 JLINK_ReadReg(R9)  returns 0x00000000 (0000ms, 0543ms total)
T0A5C 002:801 JLINK_ReadReg(R10)  returns 0x00000000 (0000ms, 0543ms total)
T0A5C 002:801 JLINK_ReadReg(R11)  returns 0x00000000 (0000ms, 0543ms total)
T0A5C 002:801 JLINK_ReadReg(R12)  returns 0x00000000 (0000ms, 0543ms total)
T0A5C 002:801 JLINK_ReadReg(R13 (SP))  returns 0x20020000 (0000ms, 0543ms total)
T0A5C 002:801 JLINK_ReadReg(R14)  returns 0x03000CAB (0000ms, 0543ms total)
T0A5C 002:801 JLINK_ReadReg(R15 (PC))  returns 0x000279E8 (0000ms, 0543ms total)
T0A5C 002:801 JLINK_ReadReg(XPSR)  returns 0xA1000000 (0001ms, 0544ms total)
T0A5C 002:802 JLINK_ReadReg(MSP)  returns 0x20020000 (0000ms, 0544ms total)
T0A5C 002:802 JLINK_ReadReg(PSP)  returns 0x00000000 (0000ms, 0544ms total)
T0A5C 002:802 JLINK_ReadReg(CFBP)  returns 0x00000000 (0000ms, 0544ms total)
T0A5C 002:802 JLINK_ReadReg(FPSCR)  returns 0x00000000 (0003ms, 0547ms total)
T0A5C 002:805 JLINK_ReadReg(FPS0)  returns 0x00000000 (0001ms, 0548ms total)
T0A5C 002:806 JLINK_ReadReg(FPS1)  returns 0x00000000 (0000ms, 0548ms total)
T0A5C 002:806 JLINK_ReadReg(FPS2)  returns 0x00000000 (0000ms, 0548ms total)
T0A5C 002:806 JLINK_ReadReg(FPS3)  returns 0x00000000 (0000ms, 0548ms total)
T0A5C 002:806 JLINK_ReadReg(FPS4)  returns 0x00000000 (0000ms, 0548ms total)
T0A5C 002:806 JLINK_ReadReg(FPS5)  returns 0x00000000 (0000ms, 0548ms total)
T0A5C 002:806 JLINK_ReadReg(FPS6)  returns 0x00000000 (0000ms, 0548ms total)
T0A5C 002:806 JLINK_ReadReg(FPS7)  returns 0x00000000 (0000ms, 0548ms total)
T0A5C 002:806 JLINK_ReadReg(FPS8)  returns 0x00000000 (0000ms, 0548ms total)
T0A5C 002:806 JLINK_ReadReg(FPS9)  returns 0x00000000 (0000ms, 0548ms total)
T0A5C 002:806 JLINK_ReadReg(FPS10)  returns 0x00000000 (0000ms, 0548ms total)
T0A5C 002:806 JLINK_ReadReg(FPS11)  returns 0x00000000 (0000ms, 0548ms total)
T0A5C 002:806 JLINK_ReadReg(FPS12)  returns 0x00000000 (0000ms, 0548ms total)
T0A5C 002:806 JLINK_ReadReg(FPS13)  returns 0x00000000 (0000ms, 0548ms total)
T0A5C 002:806 JLINK_ReadReg(FPS14)  returns 0x00000000 (0000ms, 0548ms total)
T0A5C 002:806 JLINK_ReadReg(FPS15)  returns 0x00000000 (0000ms, 0548ms total)
T0A5C 002:806 JLINK_ReadReg(FPS16)  returns 0x00000000 (0000ms, 0548ms total)
T0A5C 002:806 JLINK_ReadReg(FPS17)  returns 0x00000000 (0000ms, 0548ms total)
T0A5C 002:806 JLINK_ReadReg(FPS18)  returns 0x00000000 (0000ms, 0548ms total)
T0A5C 002:806 JLINK_ReadReg(FPS19)  returns 0x00000000 (0000ms, 0548ms total)
T0A5C 002:806 JLINK_ReadReg(FPS20)  returns 0x00000000 (0000ms, 0548ms total)
T0A5C 002:806 JLINK_ReadReg(FPS21)  returns 0x00000000 (0000ms, 0548ms total)
T0A5C 002:806 JLINK_ReadReg(FPS22)  returns 0x00000000 (0000ms, 0548ms total)
T0A5C 002:806 JLINK_ReadReg(FPS23)  returns 0x00000000 (0000ms, 0548ms total)
T0A5C 002:806 JLINK_ReadReg(FPS24)  returns 0x00000000 (0000ms, 0548ms total)
T0A5C 002:806 JLINK_ReadReg(FPS25)  returns 0x00000000 (0000ms, 0548ms total)
T0A5C 002:806 JLINK_ReadReg(FPS26)  returns 0x00000000 (0000ms, 0548ms total)
T0A5C 002:806 JLINK_ReadReg(FPS27)  returns 0x00000000 (0000ms, 0548ms total)
T0A5C 002:806 JLINK_ReadReg(FPS28)  returns 0x00000000 (0000ms, 0548ms total)
T0A5C 002:806 JLINK_ReadReg(FPS29)  returns 0x00000000 (0000ms, 0548ms total)
T0A5C 002:807 JLINK_ReadReg(FPS30)  returns 0x00000000 (0000ms, 0549ms total)
T0A5C 002:807 JLINK_ReadReg(FPS31)  returns 0x00000000 (0000ms, 0549ms total)
T0A5C 002:857 JLINK_WriteMemEx(0x20000000, 0x0124 Bytes, ..., Flags = 0x02000000) - Data: 00 85 00 20 A1 04 00 20 A9 04 00 20 AB 04 00 20 ... -- CPU_WriteMem(292 bytes @ 0x20000000)  returns 0x124 (0002ms, 0551ms total)
T0A5C 002:860 JLINK_WriteMemEx(0x20000400, 0x1000 Bytes, ..., Flags = 0x02000000) - Data: 00 F0 02 F8 00 F0 3C F8 0A A0 90 E8 00 0C 82 44 ... -- CPU_WriteMem(4096 bytes @ 0x20000400)  returns 0x1000 (0010ms, 0561ms total)
T0A5C 002:872 JLINK_WriteMemEx(0x20001400, 0x1000 Bytes, ..., Flags = 0x02000000) - Data: 08 43 40 F0 80 40 0F 49 08 60 16 E0 0E 48 00 1F ... -- CPU_WriteMem(4096 bytes @ 0x20001400)  returns 0x1000 (0010ms, 0571ms total)
T0A5C 002:884 JLINK_WriteMemEx(0x20002400, 0x0328 Bytes, ..., Flags = 0x02000000) - Data: 00 00 00 00 00 00 00 00 00 00 00 00 00 00 00 00 ... -- CPU_WriteMem(808 bytes @ 0x20002400)  returns 0x328 (0003ms, 0574ms total)
T0A5C 002:939 JLINK_WriteReg(R13 (SP), 0x20008500)  returns 0x00 (0000ms, 0574ms total)
T0A5C 002:939 JLINK_ReadReg(R0)  returns 0x00000000 (0000ms, 0574ms total)
T0A5C 002:939 JLINK_ReadReg(R1)  returns 0x000279E9 (0000ms, 0574ms total)
T0A5C 002:939 JLINK_ReadReg(R2)  returns 0xFFFFFFFF (0000ms, 0574ms total)
T0A5C 002:939 JLINK_ReadReg(R3)  returns 0x00000000 (0000ms, 0574ms total)
T0A5C 002:939 JLINK_ReadReg(R4)  returns 0x40000000 (0000ms, 0574ms total)
T0A5C 002:939 JLINK_ReadReg(R5)  returns 0x00000000 (0000ms, 0574ms total)
T0A5C 002:939 JLINK_ReadReg(R6)  returns 0x00000002 (0001ms, 0575ms total)
T0A5C 002:940 JLINK_ReadReg(R7)  returns 0x12345678 (0000ms, 0575ms total)
T0A5C 002:940 JLINK_ReadReg(R8)  returns 0x00000000 (0000ms, 0575ms total)
T0A5C 002:940 JLINK_ReadReg(R9)  returns 0x00000000 (0000ms, 0575ms total)
T0A5C 002:940 JLINK_ReadReg(R10)  returns 0x00000000 (0000ms, 0575ms total)
T0A5C 002:940 JLINK_ReadReg(R11)  returns 0x00000000 (0000ms, 0575ms total)
T0A5C 002:940 JLINK_ReadReg(R12)  returns 0x00000000 (0000ms, 0575ms total)
T0A5C 002:940 JLINK_ReadReg(R13 (SP))  returns 0x20008500 (0000ms, 0575ms total)
T0A5C 002:940 JLINK_ReadReg(R14)  returns 0x03000CAB (0000ms, 0575ms total)
T0A5C 002:940 JLINK_ReadReg(R15 (PC))  returns 0x000279E8 (0000ms, 0575ms total)
T0A5C 002:940 JLINK_ReadReg(XPSR)  returns 0xA1000000 (0000ms, 0575ms total)
T0A5C 002:940 JLINK_ReadReg(MSP)  returns 0x20008500 (0000ms, 0575ms total)
T0A5C 002:940 JLINK_ReadReg(PSP)  returns 0x00000000 (0000ms, 0575ms total)
T0A5C 002:940 JLINK_ReadReg(CFBP)  returns 0x00000000 (0000ms, 0575ms total)
T0A5C 002:940 JLINK_ReadReg(FPSCR)  returns 0x00000000 (0000ms, 0575ms total)
T0A5C 002:940 JLINK_ReadReg(FPS0)  returns 0x00000000 (0000ms, 0575ms total)
T0A5C 002:940 JLINK_ReadReg(FPS1)  returns 0x00000000 (0000ms, 0575ms total)
T0A5C 002:940 JLINK_ReadReg(FPS2)  returns 0x00000000 (0000ms, 0575ms total)
T0A5C 002:940 JLINK_ReadReg(FPS3)  returns 0x00000000 (0000ms, 0575ms total)
T0A5C 002:940 JLINK_ReadReg(FPS4)  returns 0x00000000 (0000ms, 0575ms total)
T0A5C 002:940 JLINK_ReadReg(FPS5)  returns 0x00000000 (0000ms, 0575ms total)
T0A5C 002:940 JLINK_ReadReg(FPS6)  returns 0x00000000 (0000ms, 0575ms total)
T0A5C 002:940 JLINK_ReadReg(FPS7)  returns 0x00000000 (0000ms, 0575ms total)
T0A5C 002:940 JLINK_ReadReg(FPS8)  returns 0x00000000 (0000ms, 0575ms total)
T0A5C 002:940 JLINK_ReadReg(FPS9)  returns 0x00000000 (0000ms, 0575ms total)
T0A5C 002:940 JLINK_ReadReg(FPS10)  returns 0x00000000 (0000ms, 0575ms total)
T0A5C 002:940 JLINK_ReadReg(FPS11)  returns 0x00000000 (0000ms, 0575ms total)
T0A5C 002:940 JLINK_ReadReg(FPS12)  returns 0x00000000 (0001ms, 0576ms total)
T0A5C 002:941 JLINK_ReadReg(FPS13)  returns 0x00000000 (0000ms, 0576ms total)
T0A5C 002:941 JLINK_ReadReg(FPS14)  returns 0x00000000 (0000ms, 0576ms total)
T0A5C 002:941 JLINK_ReadReg(FPS15)  returns 0x00000000 (0000ms, 0576ms total)
T0A5C 002:941 JLINK_ReadReg(FPS16)  returns 0x00000000 (0000ms, 0576ms total)
T0A5C 002:941 JLINK_ReadReg(FPS17)  returns 0x00000000 (0000ms, 0576ms total)
T0A5C 002:941 JLINK_ReadReg(FPS18)  returns 0x00000000 (0000ms, 0576ms total)
T0A5C 002:941 JLINK_ReadReg(FPS19)  returns 0x00000000 (0000ms, 0576ms total)
T0A5C 002:941 JLINK_ReadReg(FPS20)  returns 0x00000000 (0000ms, 0576ms total)
T0A5C 002:941 JLINK_ReadReg(FPS21)  returns 0x00000000 (0000ms, 0576ms total)
T0A5C 002:941 JLINK_ReadReg(FPS22)  returns 0x00000000 (0000ms, 0576ms total)
T0A5C 002:941 JLINK_ReadReg(FPS23)  returns 0x00000000 (0000ms, 0576ms total)
T0A5C 002:941 JLINK_ReadReg(FPS24)  returns 0x00000000 (0000ms, 0576ms total)
T0A5C 002:941 JLINK_ReadReg(FPS25)  returns 0x00000000 (0000ms, 0576ms total)
T0A5C 002:941 JLINK_ReadReg(FPS26)  returns 0x00000000 (0000ms, 0576ms total)
T0A5C 002:941 JLINK_ReadReg(FPS27)  returns 0x00000000 (0000ms, 0576ms total)
T0A5C 002:941 JLINK_ReadReg(FPS28)  returns 0x00000000 (0000ms, 0576ms total)
T0A5C 002:941 JLINK_ReadReg(FPS29)  returns 0x00000000 (0000ms, 0576ms total)
T0A5C 002:941 JLINK_ReadReg(FPS30)  returns 0x00000000 (0000ms, 0576ms total)
T0A5C 002:941 JLINK_ReadReg(FPS31)  returns 0x00000000 (0000ms, 0576ms total)
T0A5C 002:941 JLINK_WriteReg(R15 (PC), 0x200004A0)  returns 0x00 (0000ms, 0576ms total)
T0A5C 002:941 JLINK_ReadReg(R0)  returns 0x00000000 (0000ms, 0576ms total)
T0A5C 002:941 JLINK_ReadReg(R1)  returns 0x000279E9 (0000ms, 0576ms total)
T0A5C 002:941 JLINK_ReadReg(R2)  returns 0xFFFFFFFF (0000ms, 0576ms total)
T0A5C 002:941 JLINK_ReadReg(R3)  returns 0x00000000 (0000ms, 0576ms total)
T0A5C 002:941 JLINK_ReadReg(R4)  returns 0x40000000 (0000ms, 0576ms total)
T0A5C 002:941 JLINK_ReadReg(R5)  returns 0x00000000 (0000ms, 0576ms total)
T0A5C 002:941 JLINK_ReadReg(R6)  returns 0x00000002 (0000ms, 0576ms total)
T0A5C 002:941 JLINK_ReadReg(R7)  returns 0x12345678 (0001ms, 0577ms total)
T0A5C 002:942 JLINK_ReadReg(R8)  returns 0x00000000 (0000ms, 0577ms total)
T0A5C 002:942 JLINK_ReadReg(R9)  returns 0x00000000 (0000ms, 0577ms total)
T0A5C 002:942 JLINK_ReadReg(R10)  returns 0x00000000 (0000ms, 0577ms total)
T0A5C 002:942 JLINK_ReadReg(R11)  returns 0x00000000 (0000ms, 0577ms total)
T0A5C 002:942 JLINK_ReadReg(R12)  returns 0x00000000 (0000ms, 0577ms total)
T0A5C 002:942 JLINK_ReadReg(R13 (SP))  returns 0x20008500 (0000ms, 0577ms total)
T0A5C 002:942 JLINK_ReadReg(R14)  returns 0x03000CAB (0000ms, 0577ms total)
T0A5C 002:942 JLINK_ReadReg(R15 (PC))  returns 0x200004A0 (0000ms, 0577ms total)
T0A5C 002:942 JLINK_ReadReg(XPSR)  returns 0xA1000000 (0000ms, 0577ms total)
T0A5C 002:942 JLINK_ReadReg(MSP)  returns 0x20008500 (0000ms, 0577ms total)
T0A5C 002:942 JLINK_ReadReg(PSP)  returns 0x00000000 (0000ms, 0577ms total)
T0A5C 002:942 JLINK_ReadReg(CFBP)  returns 0x00000000 (0000ms, 0577ms total)
T0A5C 002:942 JLINK_ReadReg(FPSCR)  returns 0x00000000 (0000ms, 0577ms total)
T0A5C 002:942 JLINK_ReadReg(FPS0)  returns 0x00000000 (0000ms, 0577ms total)
T0A5C 002:942 JLINK_ReadReg(FPS1)  returns 0x00000000 (0000ms, 0577ms total)
T0A5C 002:942 JLINK_ReadReg(FPS2)  returns 0x00000000 (0000ms, 0577ms total)
T0A5C 002:942 JLINK_ReadReg(FPS3)  returns 0x00000000 (0000ms, 0577ms total)
T0A5C 002:942 JLINK_ReadReg(FPS4)  returns 0x00000000 (0000ms, 0577ms total)
T0A5C 002:942 JLINK_ReadReg(FPS5)  returns 0x00000000 (0000ms, 0577ms total)
T0A5C 002:942 JLINK_ReadReg(FPS6)  returns 0x00000000 (0000ms, 0577ms total)
T0A5C 002:942 JLINK_ReadReg(FPS7)  returns 0x00000000 (0000ms, 0577ms total)
T0A5C 002:942 JLINK_ReadReg(FPS8)  returns 0x00000000 (0000ms, 0577ms total)
T0A5C 002:942 JLINK_ReadReg(FPS9)  returns 0x00000000 (0000ms, 0577ms total)
T0A5C 002:942 JLINK_ReadReg(FPS10)  returns 0x00000000 (0000ms, 0577ms total)
T0A5C 002:942 JLINK_ReadReg(FPS11)  returns 0x00000000 (0000ms, 0577ms total)
T0A5C 002:942 JLINK_ReadReg(FPS12)  returns 0x00000000 (0000ms, 0577ms total)
T0A5C 002:942 JLINK_ReadReg(FPS13)  returns 0x00000000 (0000ms, 0577ms total)
T0A5C 002:942 JLINK_ReadReg(FPS14)  returns 0x00000000 (0000ms, 0577ms total)
T0A5C 002:942 JLINK_ReadReg(FPS15)  returns 0x00000000 (0001ms, 0578ms total)
T0A5C 002:943 JLINK_ReadReg(FPS16)  returns 0x00000000 (0000ms, 0578ms total)
T0A5C 002:943 JLINK_ReadReg(FPS17)  returns 0x00000000 (0000ms, 0578ms total)
T0A5C 002:943 JLINK_ReadReg(FPS18)  returns 0x00000000 (0000ms, 0578ms total)
T0A5C 002:943 JLINK_ReadReg(FPS19)  returns 0x00000000 (0000ms, 0578ms total)
T0A5C 002:943 JLINK_ReadReg(FPS20)  returns 0x00000000 (0000ms, 0578ms total)
T0A5C 002:943 JLINK_ReadReg(FPS21)  returns 0x00000000 (0000ms, 0578ms total)
T0A5C 002:943 JLINK_ReadReg(FPS22)  returns 0x00000000 (0000ms, 0578ms total)
T0A5C 002:943 JLINK_ReadReg(FPS23)  returns 0x00000000 (0000ms, 0578ms total)
T0A5C 002:943 JLINK_ReadReg(FPS24)  returns 0x00000000 (0000ms, 0578ms total)
T0A5C 002:943 JLINK_ReadReg(FPS25)  returns 0x00000000 (0000ms, 0578ms total)
T0A5C 002:943 JLINK_ReadReg(FPS26)  returns 0x00000000 (0000ms, 0578ms total)
T0A5C 002:943 JLINK_ReadReg(FPS27)  returns 0x00000000 (0000ms, 0578ms total)
T0A5C 002:943 JLINK_ReadReg(FPS28)  returns 0x00000000 (0000ms, 0578ms total)
T0A5C 002:943 JLINK_ReadReg(FPS29)  returns 0x00000000 (0000ms, 0578ms total)
T0A5C 002:943 JLINK_ReadReg(FPS30)  returns 0x00000000 (0000ms, 0578ms total)
T0A5C 002:943 JLINK_ReadReg(FPS31)  returns 0x00000000 (0000ms, 0578ms total)
T0A5C 002:943 JLINK_WriteMemEx(0xE000ED08, 0x0004 Bytes, ..., Flags = 0x02000000) - Data: 00 00 00 20 -- CPU_WriteMem(4 bytes @ 0xE000ED08)  returns 0x04 (0001ms, 0579ms total)
T2D80 002:959 JLINK_ReadMemEx(0x200004A0, 0x0002 Bytes, ..., Flags = 0x02000000) -- CPU_ReadMem(64 bytes @ 0x20000480) -- Updating C cache (64 bytes @ 0x20000480) -- Read from C cache (2 bytes @ 0x200004A0) - Data: 3F 48  returns 0x02 (0001ms, 0580ms total)
T2D80 002:960 JLINK_SetBPEx(Addr = 0x20002274, Type = 0xFFFFFFF2) -- CPU_ReadMem(2 bytes @ 0x20002274)  returns 0x00000001 (0001ms, 0581ms total)
T2D80 002:961 JLINK_Go() -- CPU_WriteMem(2 bytes @ 0x20002274) -- CPU_ReadMem(4 bytes @ 0xE0001000) -- CPU_WriteMem(4 bytes @ 0xE0002008) -- CPU_WriteMem(4 bytes @ 0xE000200C) -- CPU_WriteMem(4 bytes @ 0xE0002010) -- CPU_WriteMem(4 bytes @ 0xE0002014) -- CPU_WriteMem(4 bytes @ 0xE0002018) -- CPU_WriteMem(4 bytes @ 0xE000201C) -- CPU_WriteMem(4 bytes @ 0xE0001004) (0006ms, 0587ms total)
T2D80 003:068 JLINK_IsHalted() -- CPU_ReadMem(2 bytes @ 0x20002274)  returns TRUE (0001ms, 0588ms total)
T2D80 003:069 JLINK_Halt()  returns 0x00 (0000ms, 0587ms total)
T2D80 003:069 JLINK_IsHalted()  returns TRUE (0000ms, 0587ms total)
T2D80 003:069 JLINK_IsHalted()  returns TRUE (0000ms, 0587ms total)
T2D80 003:069 JLINK_IsHalted()  returns TRUE (0000ms, 0587ms total)
T2D80 003:070 JLINK_ReadReg(R15 (PC))  returns 0x20002274 (0000ms, 0587ms total)
T2D80 003:070 JLINK_ReadReg(XPSR)  returns 0x61000000 (0000ms, 0587ms total)
T2D80 003:070 JLINK_ClrBPEx(BPHandle = 0x00000001)  returns 0x00 (0000ms, 0587ms total)
T2D80 003:070 JLINK_ReadMemU32(0xE000ED30, 0x0001 Items, ...) -- CPU_ReadMem(4 bytes @ 0xE000ED30) - Data: 02 00 00 00  returns 0x01 (0000ms, 0587ms total)
T2D80 003:070 JLINK_ReadMemU32(0xE0001028, 0x0001 Items, ...) -- CPU_ReadMem(4 bytes @ 0xE0001028) - Data: 00 00 00 00  returns 0x01 (0001ms, 0588ms total)
T2D80 003:071 JLINK_ReadMemU32(0xE0001038, 0x0001 Items, ...) -- CPU_ReadMem(4 bytes @ 0xE0001038) - Data: 00 02 00 00  returns 0x01 (0001ms, 0589ms total)
T2D80 003:072 JLINK_ReadMemU32(0xE0001048, 0x0001 Items, ...) -- CPU_ReadMem(4 bytes @ 0xE0001048) - Data: 00 00 00 00  returns 0x01 (0001ms, 0590ms total)
T2D80 003:073 JLINK_ReadMemU32(0xE0001058, 0x0001 Items, ...) -- CPU_ReadMem(4 bytes @ 0xE0001058) - Data: 00 00 00 01  returns 0x01 (0000ms, 0590ms total)
T2D80 003:073 JLINK_ReadReg(R0)  returns 0x20002728 (0000ms, 0590ms total)
T2D80 003:073 JLINK_ReadReg(R1)  returns 0x20006B0C (0000ms, 0590ms total)
T2D80 003:073 JLINK_ReadReg(R2)  returns 0x80000000 (0001ms, 0591ms total)
T2D80 003:074 JLINK_ReadReg(R3)  returns 0x00000000 (0000ms, 0591ms total)
T2D80 003:074 JLINK_ReadReg(R4)  returns 0x00000000 (0000ms, 0591ms total)
T2D80 003:074 JLINK_ReadReg(R5)  returns 0x00000000 (0000ms, 0591ms total)
T2D80 003:074 JLINK_ReadReg(R6)  returns 0x00000000 (0000ms, 0591ms total)
T2D80 003:074 JLINK_ReadReg(R7)  returns 0x20002683 (0000ms, 0591ms total)
T2D80 003:074 JLINK_ReadReg(R8)  returns 0x00000000 (0000ms, 0591ms total)
T2D80 003:074 JLINK_ReadReg(R9)  returns 0x00000000 (0000ms, 0591ms total)
T2D80 003:074 JLINK_ReadReg(R10)  returns 0x200026A4 (0000ms, 0591ms total)
T2D80 003:074 JLINK_ReadReg(R11)  returns 0x200026A4 (0000ms, 0591ms total)
T2D80 003:074 JLINK_ReadReg(R12)  returns 0x00000000 (0000ms, 0591ms total)
T2D80 003:074 JLINK_ReadReg(R13 (SP))  returns 0x20008500 (0000ms, 0591ms total)
T2D80 003:074 JLINK_ReadReg(R14)  returns 0x2000048D (0000ms, 0591ms total)
T2D80 003:074 JLINK_ReadReg(R15 (PC))  returns 0x20002274 (0000ms, 0591ms total)
T2D80 003:074 JLINK_ReadReg(XPSR)  returns 0x61000000 (0000ms, 0591ms total)
T2D80 003:074 JLINK_ReadReg(MSP)  returns 0x20008500 (0000ms, 0591ms total)
T2D80 003:074 JLINK_ReadReg(PSP)  returns 0x00000000 (0000ms, 0591ms total)
T2D80 003:074 JLINK_ReadReg(CFBP)  returns 0x04000000 (0000ms, 0591ms total)
T2D80 003:074 JLINK_ReadReg(FPSCR)  returns 0x03000000 (0003ms, 0594ms total)
T2D80 003:077 JLINK_ReadReg(FPS0)  returns 0x00000000 (0000ms, 0594ms total)
T2D80 003:077 JLINK_ReadReg(FPS1)  returns 0x00000000 (0000ms, 0594ms total)
T2D80 003:077 JLINK_ReadReg(FPS2)  returns 0x00000000 (0000ms, 0594ms total)
T2D80 003:077 JLINK_ReadReg(FPS3)  returns 0x00000000 (0000ms, 0594ms total)
T2D80 003:077 JLINK_ReadReg(FPS4)  returns 0x00000000 (0000ms, 0594ms total)
T2D80 003:077 JLINK_ReadReg(FPS5)  returns 0x00000000 (0000ms, 0594ms total)
T2D80 003:077 JLINK_ReadReg(FPS6)  returns 0x00000000 (0000ms, 0594ms total)
T2D80 003:077 JLINK_ReadReg(FPS7)  returns 0x00000000 (0000ms, 0594ms total)
T2D80 003:077 JLINK_ReadReg(FPS8)  returns 0x00000000 (0001ms, 0595ms total)
T2D80 003:078 JLINK_ReadReg(FPS9)  returns 0x00000000 (0000ms, 0595ms total)
T2D80 003:078 JLINK_ReadReg(FPS10)  returns 0x00000000 (0000ms, 0595ms total)
T2D80 003:078 JLINK_ReadReg(FPS11)  returns 0x00000000 (0000ms, 0595ms total)
T2D80 003:078 JLINK_ReadReg(FPS12)  returns 0x00000000 (0000ms, 0595ms total)
T2D80 003:078 JLINK_ReadReg(FPS13)  returns 0x00000000 (0000ms, 0595ms total)
T2D80 003:078 JLINK_ReadReg(FPS14)  returns 0x00000000 (0000ms, 0595ms total)
T2D80 003:078 JLINK_ReadReg(FPS15)  returns 0x00000000 (0000ms, 0595ms total)
T2D80 003:078 JLINK_ReadReg(FPS16)  returns 0x00000000 (0000ms, 0595ms total)
T2D80 003:078 JLINK_ReadReg(FPS17)  returns 0x00000000 (0000ms, 0595ms total)
T2D80 003:078 JLINK_ReadReg(FPS18)  returns 0x00000000 (0000ms, 0595ms total)
T2D80 003:078 JLINK_ReadReg(FPS19)  returns 0x00000000 (0000ms, 0595ms total)
T2D80 003:078 JLINK_ReadReg(FPS20)  returns 0x00000000 (0000ms, 0595ms total)
T2D80 003:078 JLINK_ReadReg(FPS21)  returns 0x00000000 (0000ms, 0595ms total)
T2D80 003:078 JLINK_ReadReg(FPS22)  returns 0x00000000 (0000ms, 0595ms total)
T2D80 003:078 JLINK_ReadReg(FPS23)  returns 0x00000000 (0000ms, 0595ms total)
T2D80 003:078 JLINK_ReadReg(FPS24)  returns 0x00000000 (0000ms, 0595ms total)
T2D80 003:078 JLINK_ReadReg(FPS25)  returns 0x00000000 (0000ms, 0595ms total)
T2D80 003:078 JLINK_ReadReg(FPS26)  returns 0x00000000 (0000ms, 0595ms total)
T2D80 003:078 JLINK_ReadReg(FPS27)  returns 0x00000000 (0000ms, 0595ms total)
T2D80 003:078 JLINK_ReadReg(FPS28)  returns 0x00000000 (0000ms, 0595ms total)
T2D80 003:078 JLINK_ReadReg(FPS29)  returns 0x00000000 (0000ms, 0595ms total)
T2D80 003:078 JLINK_ReadReg(FPS30)  returns 0x00000000 (0000ms, 0595ms total)
T2D80 003:078 JLINK_ReadReg(FPS31)  returns 0x00000000 (0000ms, 0595ms total)
T0A5C 003:107 JLINK_ReadMemU32(0xE0001004, 0x0001 Items, ...) -- CPU_ReadMem(4 bytes @ 0xE0001004) - Data: AF 04 00 00  returns 0x01 (0001ms, 0596ms total)
T0A5C 003:109 JLINK_ReadMemEx(0x20002174, 0x003C Bytes, ..., Flags = 0x02000000) -- CPU_ReadMem(128 bytes @ 0x20002140) -- Updating C cache (128 bytes @ 0x20002140) -- Read from C cache (60 bytes @ 0x20002174) - Data: 04 2D DB D2 BB F5 80 3F 02 D3 41 F2 51 60 D1 E7 ...  returns 0x3C (0000ms, 0596ms total)
T0A5C 003:110 JLINK_ReadMemEx(0x200021DC, 0x003C Bytes, ..., Flags = 0x02000000) -- CPU_ReadMem(128 bytes @ 0x200021C0) -- Updating C cache (128 bytes @ 0x200021C0) -- Read from C cache (60 bytes @ 0x200021DC) - Data: 2D E9 F0 41 06 46 0F 46 90 46 00 25 34 46 04 E0 ...  returns 0x3C (0001ms, 0598ms total)
T0A5C 003:111 JLINK_ReadMemEx(0x20002218, 0x003C Bytes, ..., Flags = 0x02000000) -- CPU_ReadMem(64 bytes @ 0x20002240) -- Updating C cache (64 bytes @ 0x20002240) -- Read from C cache (60 bytes @ 0x20002218) - Data: 0A 48 FF F7 42 FE 00 BF 08 48 C0 69 00 F0 20 00 ...  returns 0x3C (0001ms, 0599ms total)
T0A5C 003:112 JLINK_ReadMemEx(0x20002254, 0x003C Bytes, ..., Flags = 0x02000000) -- CPU_ReadMem(64 bytes @ 0x20002280) -- Updating C cache (64 bytes @ 0x20002280) -- Read from C cache (60 bytes @ 0x20002254) -- Merging zombie BP[0]: 0xB51F @ 0x20002274 - Data: 08 31 06 48 FF F7 23 FE 40 21 04 48 FF F7 78 FE ...  returns 0x3C (0000ms, 0599ms total)
T0A5C 003:229 JLINK_ReadMemEx(0x00000000, 0x00A8 Bytes, ..., Flags = 0x02000000) -- CPU_ReadMem(4 bytes @ 0x40000000) -- CPU_ReadMem(192 bytes @ 0x00000000) -- Updating C cache (192 bytes @ 0x00000000) -- Read from C cache (168 bytes @ 0x00000000) - Data: 00 00 02 20 E9 79 02 00 8F EA 00 00 27 3B 01 00 ...  returns 0xA8 (0002ms, 0601ms total)
T2D80 004:843 JLINK_ReadMemEx(0x20002274, 0x0002 Bytes, ..., Flags = 0x02000000) -- Merging zombie BP[0]: 0xB51F @ 0x20002274 -- Merging zombie BP[0]: 0xB51F @ 0x20002274 - Data: 1F B5  returns 0x02 (0000ms, 0601ms total)
T2D80 004:843 JLINK_Step() -- Merging zombie BP[0]: 0xB51F @ 0x20002274 -- Merging zombie BP[0]: 0xB51F @ 0x20002274 -- CPU_ReadMem(4 bytes @ 0xE000ED18) -- CPU_WriteMem(4 bytes @ 0xE000ED18) -- CPU_ReadMem(4 bytes @ 0xE000ED18) -- CPU_WriteMem(4 bytes @ 0xE000ED18) -- CPU_WriteMem(24 bytes @ 0x200084E8) -- Simulated  returns 0x00 (0006ms, 0607ms total)
T2D80 004:849 JLINK_ReadReg(R15 (PC))  returns 0x20002276 (0000ms, 0607ms total)
T2D80 004:849 JLINK_ReadReg(XPSR)  returns 0x61000000 (0000ms, 0607ms total)
T2D80 004:849 JLINK_ReadReg(R0)  returns 0x20002728 (0000ms, 0607ms total)
T2D80 004:849 JLINK_ReadReg(R1)  returns 0x20006B0C (0000ms, 0607ms total)
T2D80 004:849 JLINK_ReadReg(R2)  returns 0x80000000 (0000ms, 0607ms total)
T2D80 004:849 JLINK_ReadReg(R3)  returns 0x00000000 (0000ms, 0607ms total)
T2D80 004:849 JLINK_ReadReg(R4)  returns 0x00000000 (0000ms, 0607ms total)
T2D80 004:849 JLINK_ReadReg(R5)  returns 0x00000000 (0000ms, 0607ms total)
T2D80 004:849 JLINK_ReadReg(R6)  returns 0x00000000 (0000ms, 0607ms total)
T2D80 004:849 JLINK_ReadReg(R7)  returns 0x20002683 (0000ms, 0607ms total)
T2D80 004:849 JLINK_ReadReg(R8)  returns 0x00000000 (0000ms, 0607ms total)
T2D80 004:849 JLINK_ReadReg(R9)  returns 0x00000000 (0000ms, 0607ms total)
T2D80 004:849 JLINK_ReadReg(R10)  returns 0x200026A4 (0000ms, 0607ms total)
T2D80 004:849 JLINK_ReadReg(R11)  returns 0x200026A4 (0000ms, 0607ms total)
T2D80 004:849 JLINK_ReadReg(R12)  returns 0x00000000 (0000ms, 0607ms total)
T2D80 004:849 JLINK_ReadReg(R13 (SP))  returns 0x200084E8 (0000ms, 0607ms total)
T2D80 004:849 JLINK_ReadReg(R14)  returns 0x2000048D (0000ms, 0607ms total)
T2D80 004:849 JLINK_ReadReg(R15 (PC))  returns 0x20002276 (0000ms, 0607ms total)
T2D80 004:849 JLINK_ReadReg(XPSR)  returns 0x61000000 (0000ms, 0607ms total)
T2D80 004:849 JLINK_ReadReg(MSP)  returns 0x200084E8 (0000ms, 0607ms total)
T2D80 004:849 JLINK_ReadReg(PSP)  returns 0x00000000 (0000ms, 0607ms total)
T2D80 004:849 JLINK_ReadReg(CFBP)  returns 0x04000000 (0000ms, 0607ms total)
T2D80 004:849 JLINK_ReadReg(FPSCR)  returns 0x03000000 (0001ms, 0608ms total)
T2D80 004:850 JLINK_ReadReg(FPS0)  returns 0x00000000 (0000ms, 0608ms total)
T2D80 004:850 JLINK_ReadReg(FPS1)  returns 0x00000000 (0000ms, 0608ms total)
T2D80 004:850 JLINK_ReadReg(FPS2)  returns 0x00000000 (0000ms, 0608ms total)
T2D80 004:850 JLINK_ReadReg(FPS3)  returns 0x00000000 (0000ms, 0608ms total)
T2D80 004:850 JLINK_ReadReg(FPS4)  returns 0x00000000 (0000ms, 0608ms total)
T2D80 004:850 JLINK_ReadReg(FPS5)  returns 0x00000000 (0000ms, 0608ms total)
T2D80 004:850 JLINK_ReadReg(FPS6)  returns 0x00000000 (0000ms, 0608ms total)
T2D80 004:850 JLINK_ReadReg(FPS7)  returns 0x00000000 (0000ms, 0608ms total)
T2D80 004:850 JLINK_ReadReg(FPS8)  returns 0x00000000 (0000ms, 0608ms total)
T2D80 004:850 JLINK_ReadReg(FPS9)  returns 0x00000000 (0000ms, 0608ms total)
T2D80 004:850 JLINK_ReadReg(FPS10)  returns 0x00000000 (0000ms, 0608ms total)
T2D80 004:850 JLINK_ReadReg(FPS11)  returns 0x00000000 (0000ms, 0608ms total)
T2D80 004:850 JLINK_ReadReg(FPS12)  returns 0x00000000 (0000ms, 0608ms total)
T2D80 004:850 JLINK_ReadReg(FPS13)  returns 0x00000000 (0000ms, 0608ms total)
T2D80 004:850 JLINK_ReadReg(FPS14)  returns 0x00000000 (0000ms, 0608ms total)
T2D80 004:850 JLINK_ReadReg(FPS15)  returns 0x00000000 (0000ms, 0608ms total)
T2D80 004:850 JLINK_ReadReg(FPS16)  returns 0x00000000 (0000ms, 0608ms total)
T2D80 004:850 JLINK_ReadReg(FPS17)  returns 0x00000000 (0000ms, 0608ms total)
T2D80 004:850 JLINK_ReadReg(FPS18)  returns 0x00000000 (0000ms, 0608ms total)
T2D80 004:850 JLINK_ReadReg(FPS19)  returns 0x00000000 (0000ms, 0608ms total)
T2D80 004:850 JLINK_ReadReg(FPS20)  returns 0x00000000 (0000ms, 0608ms total)
T2D80 004:850 JLINK_ReadReg(FPS21)  returns 0x00000000 (0000ms, 0608ms total)
T2D80 004:850 JLINK_ReadReg(FPS22)  returns 0x00000000 (0000ms, 0608ms total)
T2D80 004:850 JLINK_ReadReg(FPS23)  returns 0x00000000 (0000ms, 0608ms total)
T2D80 004:850 JLINK_ReadReg(FPS24)  returns 0x00000000 (0000ms, 0608ms total)
T2D80 004:850 JLINK_ReadReg(FPS25)  returns 0x00000000 (0000ms, 0608ms total)
T2D80 004:850 JLINK_ReadReg(FPS26)  returns 0x00000000 (0000ms, 0608ms total)
T2D80 004:850 JLINK_ReadReg(FPS27)  returns 0x00000000 (0000ms, 0608ms total)
T2D80 004:851 JLINK_ReadReg(FPS28)  returns 0x00000000 (0000ms, 0608ms total)
T2D80 004:851 JLINK_ReadReg(FPS29)  returns 0x00000000 (0000ms, 0608ms total)
T2D80 004:851 JLINK_ReadReg(FPS30)  returns 0x00000000 (0000ms, 0608ms total)
T2D80 004:851 JLINK_ReadReg(FPS31)  returns 0x00000000 (0000ms, 0608ms total)
T0A5C 004:851 JLINK_ReadMemEx(0x200084FC, 0x0004 Bytes, ..., Flags = 0x02000000) -- CPU_ReadMem(64 bytes @ 0x200084C0) -- Updating C cache (64 bytes @ 0x200084C0) -- Read from C cache (4 bytes @ 0x200084FC) - Data: 8D 04 00 20  returns 0x04 (0001ms, 0609ms total)
T0A5C 004:852 JLINK_ReadMemU32(0xE0001004, 0x0001 Items, ...) - Data: B6 04 00 00  returns 0x01 (0000ms, 0609ms total)
T0A5C 004:857 JLINK_ReadMemEx(0x20002274, 0x003C Bytes, ..., Flags = 0x02000000) -- Read from C cache (60 bytes @ 0x20002274) -- Merging zombie BP[0]: 0xB51F @ 0x20002274 - Data: 1F B5 3A 48 00 68 00 90 0E 20 FE F7 5F FC 10 20 ...  returns 0x3C (0000ms, 0609ms total)
T2D80 005:549 JLINK_ReadMemEx(0x20002276, 0x0002 Bytes, ..., Flags = 0x02000000) -- Read from C cache (2 bytes @ 0x20002276) - Data: 3A 48  returns 0x02 (0000ms, 0609ms total)
T2D80 005:549 JLINK_Step() -- Read from C cache (2 bytes @ 0x20002276) -- CPU_ReadMem(64 bytes @ 0x20002340) -- Updating C cache (64 bytes @ 0x20002340) -- Read from C cache (4 bytes @ 0x20002360) -- Simulated  returns 0x00 (0002ms, 0611ms total)
T2D80 005:551 JLINK_ReadReg(R15 (PC))  returns 0x20002278 (0000ms, 0611ms total)
T2D80 005:551 JLINK_ReadReg(XPSR)  returns 0x61000000 (0000ms, 0611ms total)
T2D80 005:551 JLINK_Step() -- Read from C cache (2 bytes @ 0x20002278) -- CPU_ReadMem(64 bytes @ 0x20002380) -- Updating C cache (64 bytes @ 0x20002380) -- Read from C cache (4 bytes @ 0x2000238C) -- Simulated  returns 0x00 (0002ms, 0613ms total)
T2D80 005:553 JLINK_ReadReg(R15 (PC))  returns 0x2000227A (0000ms, 0613ms total)
T2D80 005:553 JLINK_ReadReg(XPSR)  returns 0x61000000 (0000ms, 0613ms total)
T2D80 005:553 JLINK_Step() -- Read from C cache (2 bytes @ 0x2000227A) -- CPU_WriteMem(4 bytes @ 0x200084E8) -- Simulated  returns 0x00 (0001ms, 0614ms total)
T2D80 005:554 JLINK_ReadReg(R15 (PC))  returns 0x2000227C (0000ms, 0614ms total)
T2D80 005:554 JLINK_ReadReg(XPSR)  returns 0x61000000 (0000ms, 0614ms total)
T2D80 005:554 JLINK_ReadReg(R0)  returns 0x00000001 (0000ms, 0614ms total)
T2D80 005:554 JLINK_ReadReg(R1)  returns 0x20006B0C (0000ms, 0614ms total)
T2D80 005:554 JLINK_ReadReg(R2)  returns 0x80000000 (0001ms, 0615ms total)
T2D80 005:555 JLINK_ReadReg(R3)  returns 0x00000000 (0000ms, 0615ms total)
T2D80 005:555 JLINK_ReadReg(R4)  returns 0x00000000 (0000ms, 0615ms total)
T2D80 005:555 JLINK_ReadReg(R5)  returns 0x00000000 (0000ms, 0615ms total)
T2D80 005:555 JLINK_ReadReg(R6)  returns 0x00000000 (0000ms, 0615ms total)
T2D80 005:555 JLINK_ReadReg(R7)  returns 0x20002683 (0000ms, 0615ms total)
T2D80 005:555 JLINK_ReadReg(R8)  returns 0x00000000 (0000ms, 0615ms total)
T2D80 005:555 JLINK_ReadReg(R9)  returns 0x00000000 (0000ms, 0615ms total)
T2D80 005:555 JLINK_ReadReg(R10)  returns 0x200026A4 (0000ms, 0615ms total)
T2D80 005:555 JLINK_ReadReg(R11)  returns 0x200026A4 (0000ms, 0615ms total)
T2D80 005:555 JLINK_ReadReg(R12)  returns 0x00000000 (0000ms, 0615ms total)
T2D80 005:555 JLINK_ReadReg(R13 (SP))  returns 0x200084E8 (0000ms, 0615ms total)
T2D80 005:555 JLINK_ReadReg(R14)  returns 0x2000048D (0000ms, 0615ms total)
T2D80 005:555 JLINK_ReadReg(R15 (PC))  returns 0x2000227C (0000ms, 0615ms total)
T2D80 005:555 JLINK_ReadReg(XPSR)  returns 0x61000000 (0000ms, 0615ms total)
T2D80 005:555 JLINK_ReadReg(MSP)  returns 0x200084E8 (0000ms, 0615ms total)
T2D80 005:555 JLINK_ReadReg(PSP)  returns 0x00000000 (0000ms, 0615ms total)
T2D80 005:555 JLINK_ReadReg(CFBP)  returns 0x04000000 (0000ms, 0615ms total)
T2D80 005:555 JLINK_ReadReg(FPSCR)  returns 0x03000000 (0000ms, 0615ms total)
T2D80 005:555 JLINK_ReadReg(FPS0)  returns 0x00000000 (0000ms, 0615ms total)
T2D80 005:555 JLINK_ReadReg(FPS1)  returns 0x00000000 (0000ms, 0615ms total)
T2D80 005:555 JLINK_ReadReg(FPS2)  returns 0x00000000 (0000ms, 0615ms total)
T2D80 005:555 JLINK_ReadReg(FPS3)  returns 0x00000000 (0000ms, 0615ms total)
T2D80 005:555 JLINK_ReadReg(FPS4)  returns 0x00000000 (0000ms, 0615ms total)
T2D80 005:555 JLINK_ReadReg(FPS5)  returns 0x00000000 (0000ms, 0615ms total)
T2D80 005:555 JLINK_ReadReg(FPS6)  returns 0x00000000 (0000ms, 0615ms total)
T2D80 005:555 JLINK_ReadReg(FPS7)  returns 0x00000000 (0000ms, 0615ms total)
T2D80 005:556 JLINK_ReadReg(FPS8)  returns 0x00000000 (0000ms, 0616ms total)
T2D80 005:556 JLINK_ReadReg(FPS9)  returns 0x00000000 (0000ms, 0616ms total)
T2D80 005:556 JLINK_ReadReg(FPS10)  returns 0x00000000 (0000ms, 0616ms total)
T2D80 005:556 JLINK_ReadReg(FPS11)  returns 0x00000000 (0000ms, 0616ms total)
T2D80 005:556 JLINK_ReadReg(FPS12)  returns 0x00000000 (0000ms, 0616ms total)
T2D80 005:556 JLINK_ReadReg(FPS13)  returns 0x00000000 (0000ms, 0616ms total)
T2D80 005:556 JLINK_ReadReg(FPS14)  returns 0x00000000 (0000ms, 0616ms total)
T2D80 005:556 JLINK_ReadReg(FPS15)  returns 0x00000000 (0000ms, 0616ms total)
T2D80 005:556 JLINK_ReadReg(FPS16)  returns 0x00000000 (0000ms, 0616ms total)
T2D80 005:556 JLINK_ReadReg(FPS17)  returns 0x00000000 (0000ms, 0616ms total)
T2D80 005:556 JLINK_ReadReg(FPS18)  returns 0x00000000 (0000ms, 0616ms total)
T2D80 005:556 JLINK_ReadReg(FPS19)  returns 0x00000000 (0000ms, 0616ms total)
T2D80 005:556 JLINK_ReadReg(FPS20)  returns 0x00000000 (0000ms, 0616ms total)
T2D80 005:556 JLINK_ReadReg(FPS21)  returns 0x00000000 (0000ms, 0616ms total)
T2D80 005:556 JLINK_ReadReg(FPS22)  returns 0x00000000 (0000ms, 0616ms total)
T2D80 005:556 JLINK_ReadReg(FPS23)  returns 0x00000000 (0000ms, 0616ms total)
T2D80 005:556 JLINK_ReadReg(FPS24)  returns 0x00000000 (0000ms, 0616ms total)
T2D80 005:556 JLINK_ReadReg(FPS25)  returns 0x00000000 (0000ms, 0616ms total)
T2D80 005:556 JLINK_ReadReg(FPS26)  returns 0x00000000 (0000ms, 0616ms total)
T2D80 005:556 JLINK_ReadReg(FPS27)  returns 0x00000000 (0000ms, 0616ms total)
T2D80 005:556 JLINK_ReadReg(FPS28)  returns 0x00000000 (0000ms, 0616ms total)
T2D80 005:556 JLINK_ReadReg(FPS29)  returns 0x00000000 (0000ms, 0616ms total)
T2D80 005:556 JLINK_ReadReg(FPS30)  returns 0x00000000 (0000ms, 0616ms total)
T2D80 005:556 JLINK_ReadReg(FPS31)  returns 0x00000000 (0000ms, 0616ms total)
T0A5C 005:557 JLINK_ReadMemEx(0x200084FC, 0x0004 Bytes, ..., Flags = 0x02000000) -- CPU_ReadMem(64 bytes @ 0x200084C0) -- Updating C cache (64 bytes @ 0x200084C0) -- Read from C cache (4 bytes @ 0x200084FC) - Data: 8D 04 00 20  returns 0x04 (0001ms, 0617ms total)
T0A5C 005:558 JLINK_ReadMemU32(0xE0001004, 0x0001 Items, ...) - Data: BC 04 00 00  returns 0x01 (0000ms, 0617ms total)
T0A5C 005:561 JLINK_ReadMemEx(0x20002276, 0x0002 Bytes, ..., Flags = 0x02000000) -- Read from C cache (2 bytes @ 0x20002276) - Data: 3A 48  returns 0x02 (0001ms, 0618ms total)
T0A5C 005:562 JLINK_ReadMemEx(0x20002278, 0x003C Bytes, ..., Flags = 0x02000000) -- Read from C cache (60 bytes @ 0x20002278) - Data: 00 68 00 90 0E 20 FE F7 5F FC 10 20 FE F7 5C FC ...  returns 0x3C (0000ms, 0618ms total)
T2D80 006:162 JLINK_ReadMemEx(0x2000227C, 0x0002 Bytes, ..., Flags = 0x02000000) -- Read from C cache (2 bytes @ 0x2000227C) - Data: 0E 20  returns 0x02 (0000ms, 0618ms total)
T2D80 006:162 JLINK_Step() -- Read from C cache (2 bytes @ 0x2000227C) -- Simulated  returns 0x00 (0001ms, 0619ms total)
T2D80 006:163 JLINK_ReadReg(R15 (PC))  returns 0x2000227E (0000ms, 0619ms total)
T2D80 006:163 JLINK_ReadReg(XPSR)  returns 0x21000000 (0000ms, 0619ms total)
T2D80 006:163 JLINK_SetBPEx(Addr = 0x20002282, Type = 0xFFFFFFF2) -- CPU_ReadMem(2 bytes @ 0x20002282)  returns 0x00000002 (0001ms, 0620ms total)
T2D80 006:164 JLINK_Go() -- CPU_WriteMem(2 bytes @ 0x20002282) -- CPU_ReadMem(2 bytes @ 0x20002274) -- CPU_WriteMem(2 bytes @ 0x20002274) -- CPU_ReadMem(4 bytes @ 0xE0001000) -- CPU_WriteMem(4 bytes @ 0xE0001004) (0006ms, 0626ms total)
T2D80 006:271 JLINK_IsHalted() -- CPU_ReadMem(2 bytes @ 0x20002282)  returns TRUE (0003ms, 0629ms total)
T2D80 006:274 JLINK_Halt()  returns 0x00 (0000ms, 0626ms total)
T2D80 006:274 JLINK_IsHalted()  returns TRUE (0000ms, 0626ms total)
T2D80 006:274 JLINK_IsHalted()  returns TRUE (0000ms, 0626ms total)
T2D80 006:274 JLINK_IsHalted()  returns TRUE (0000ms, 0626ms total)
T2D80 006:274 JLINK_ReadReg(R15 (PC))  returns 0x20002282 (0000ms, 0626ms total)
T2D80 006:274 JLINK_ReadReg(XPSR)  returns 0x01000000 (0000ms, 0626ms total)
T2D80 006:274 JLINK_ClrBPEx(BPHandle = 0x00000002)  returns 0x00 (0000ms, 0626ms total)
T2D80 006:274 JLINK_ReadMemU32(0xE000ED30, 0x0001 Items, ...) -- CPU_ReadMem(4 bytes @ 0xE000ED30) - Data: 02 00 00 00  returns 0x01 (0001ms, 0627ms total)
T2D80 006:275 JLINK_ReadMemU32(0xE0001028, 0x0001 Items, ...) -- CPU_ReadMem(4 bytes @ 0xE0001028) - Data: 00 00 00 00  returns 0x01 (0001ms, 0628ms total)
T2D80 006:276 JLINK_ReadMemU32(0xE0001038, 0x0001 Items, ...) -- CPU_ReadMem(4 bytes @ 0xE0001038) - Data: 00 02 00 00  returns 0x01 (0000ms, 0628ms total)
T2D80 006:276 JLINK_ReadMemU32(0xE0001048, 0x0001 Items, ...) -- CPU_ReadMem(4 bytes @ 0xE0001048) - Data: 00 00 00 00  returns 0x01 (0001ms, 0629ms total)
T2D80 006:277 JLINK_ReadMemU32(0xE0001058, 0x0001 Items, ...) -- CPU_ReadMem(4 bytes @ 0xE0001058) - Data: 00 00 00 00  returns 0x01 (0001ms, 0630ms total)
T2D80 006:278 JLINK_ReadReg(R0)  returns 0x0000000E (0000ms, 0630ms total)
T2D80 006:278 JLINK_ReadReg(R1)  returns 0x00000000 (0000ms, 0630ms total)
T2D80 006:278 JLINK_ReadReg(R2)  returns 0x00004000 (0000ms, 0630ms total)
T2D80 006:278 JLINK_ReadReg(R3)  returns 0x40000220 (0000ms, 0630ms total)
T2D80 006:278 JLINK_ReadReg(R4)  returns 0x00000000 (0000ms, 0630ms total)
T2D80 006:278 JLINK_ReadReg(R5)  returns 0x00000000 (0000ms, 0630ms total)
T2D80 006:278 JLINK_ReadReg(R6)  returns 0x00000000 (0000ms, 0630ms total)
T2D80 006:278 JLINK_ReadReg(R7)  returns 0x20002683 (0000ms, 0630ms total)
T2D80 006:278 JLINK_ReadReg(R8)  returns 0x00000000 (0000ms, 0630ms total)
T2D80 006:278 JLINK_ReadReg(R9)  returns 0x00000000 (0000ms, 0630ms total)
T2D80 006:278 JLINK_ReadReg(R10)  returns 0x200026A4 (0000ms, 0630ms total)
T2D80 006:278 JLINK_ReadReg(R11)  returns 0x200026A4 (0000ms, 0630ms total)
T2D80 006:278 JLINK_ReadReg(R12)  returns 0x00000000 (0000ms, 0630ms total)
T2D80 006:278 JLINK_ReadReg(R13 (SP))  returns 0x200084E8 (0000ms, 0630ms total)
T2D80 006:278 JLINK_ReadReg(R14)  returns 0x20002283 (0000ms, 0630ms total)
T2D80 006:278 JLINK_ReadReg(R15 (PC))  returns 0x20002282 (0000ms, 0630ms total)
T2D80 006:278 JLINK_ReadReg(XPSR)  returns 0x01000000 (0000ms, 0630ms total)
T2D80 006:278 JLINK_ReadReg(MSP)  returns 0x200084E8 (0000ms, 0630ms total)
T2D80 006:278 JLINK_ReadReg(PSP)  returns 0x00000000 (0000ms, 0630ms total)
T2D80 006:278 JLINK_ReadReg(CFBP)  returns 0x04000000 (0000ms, 0630ms total)
T2D80 006:278 JLINK_ReadReg(FPSCR)  returns 0x03000000 (0003ms, 0633ms total)
T2D80 006:281 JLINK_ReadReg(FPS0)  returns 0x00000000 (0000ms, 0633ms total)
T2D80 006:281 JLINK_ReadReg(FPS1)  returns 0x00000000 (0001ms, 0634ms total)
T2D80 006:282 JLINK_ReadReg(FPS2)  returns 0x00000000 (0000ms, 0634ms total)
T2D80 006:282 JLINK_ReadReg(FPS3)  returns 0x00000000 (0000ms, 0634ms total)
T2D80 006:282 JLINK_ReadReg(FPS4)  returns 0x00000000 (0000ms, 0634ms total)
T2D80 006:282 JLINK_ReadReg(FPS5)  returns 0x00000000 (0000ms, 0634ms total)
T2D80 006:282 JLINK_ReadReg(FPS6)  returns 0x00000000 (0000ms, 0634ms total)
T2D80 006:282 JLINK_ReadReg(FPS7)  returns 0x00000000 (0000ms, 0634ms total)
T2D80 006:282 JLINK_ReadReg(FPS8)  returns 0x00000000 (0000ms, 0634ms total)
T2D80 006:282 JLINK_ReadReg(FPS9)  returns 0x00000000 (0000ms, 0634ms total)
T2D80 006:282 JLINK_ReadReg(FPS10)  returns 0x00000000 (0000ms, 0634ms total)
T2D80 006:282 JLINK_ReadReg(FPS11)  returns 0x00000000 (0000ms, 0634ms total)
T2D80 006:282 JLINK_ReadReg(FPS12)  returns 0x00000000 (0000ms, 0634ms total)
T2D80 006:282 JLINK_ReadReg(FPS13)  returns 0x00000000 (0000ms, 0634ms total)
T2D80 006:282 JLINK_ReadReg(FPS14)  returns 0x00000000 (0000ms, 0634ms total)
T2D80 006:282 JLINK_ReadReg(FPS15)  returns 0x00000000 (0000ms, 0634ms total)
T2D80 006:282 JLINK_ReadReg(FPS16)  returns 0x00000000 (0000ms, 0634ms total)
T2D80 006:282 JLINK_ReadReg(FPS17)  returns 0x00000000 (0000ms, 0634ms total)
T2D80 006:282 JLINK_ReadReg(FPS18)  returns 0x00000000 (0000ms, 0634ms total)
T2D80 006:282 JLINK_ReadReg(FPS19)  returns 0x00000000 (0000ms, 0634ms total)
T2D80 006:282 JLINK_ReadReg(FPS20)  returns 0x00000000 (0000ms, 0634ms total)
T2D80 006:282 JLINK_ReadReg(FPS21)  returns 0x00000000 (0000ms, 0634ms total)
T2D80 006:282 JLINK_ReadReg(FPS22)  returns 0x00000000 (0000ms, 0634ms total)
T2D80 006:282 JLINK_ReadReg(FPS23)  returns 0x00000000 (0000ms, 0634ms total)
T2D80 006:282 JLINK_ReadReg(FPS24)  returns 0x00000000 (0000ms, 0634ms total)
T2D80 006:282 JLINK_ReadReg(FPS25)  returns 0x00000000 (0000ms, 0634ms total)
T2D80 006:282 JLINK_ReadReg(FPS26)  returns 0x00000000 (0000ms, 0634ms total)
T2D80 006:282 JLINK_ReadReg(FPS27)  returns 0x00000000 (0000ms, 0634ms total)
T2D80 006:282 JLINK_ReadReg(FPS28)  returns 0x00000000 (0000ms, 0634ms total)
T2D80 006:282 JLINK_ReadReg(FPS29)  returns 0x00000000 (0000ms, 0634ms total)
